#Digilent WaveForms Impedance Analyzer
#Device Name: Discovery2
#Serial Number: SN:210321B19D0B
#Date Time: 
#Digilent WaveForms Impedance Analyzer Trace#Trace: Trace
#Start: 100 Hz
#Stop: 1e+07 Hz
#Steps: 151
#Resistor: 10000 O
#Average: 1
#ProbeResistance: 1.04e+06 O
#ProbeCapacitance: 4.3e-11 F
#Compensation:none
#Wavegen: Wavegen1
#Amplitude: 1 V
#Offset: 0 V
#Amplification: 1 X
#Settle: 0.01 s
#MinPeriods: 16
#Scale: Logarithmic
#Channel: Channel 1
#Range: 5.53139 V
#Offset: -3.93045e-05 V
#Attenuation: 1 X
#Channel: Channel 2
#Range: 5.54075 V
#Offset: 6.34596e-06 V
#Attenuation: 1 X

Frequency (Hz),Trace th (deg),Trace Rs (Ohm),Trace Xs (Ohm)
100,0.4223153292943104,589421.8087031778,4344.58480724171
107.9775162327709,-1.029546924232705,604665.854906747,-10866.40040490032
116.5914401179831,0.1754179469128285,598090.4458172292,1831.131835127147
125.8925411794166,-0.3905386003463818,594235.4859576379,-4050.481397579564
135.9356390878524,-0.4070863712071952,595083.6969049632,-4228.139336376594
146.7799267622071,-0.3577032290470922,595445.9946088528,-3717.476646147206
158.4893192461114,-0.3376800422077945,594521.2876887806,-3503.928207135044
171.1328304161781,-0.500295657229569,592404.9119140867,-5172.896500972211
184.7849797422291,-0.4632242538916463,589379.2297689843,-4765.110185641923
199.5262314968883,-0.9496288244971307,592071.5610502588,-9813.981319859091
215.4434690031882,-0.5133509481236921,596967.7456770405,-5348.773703178441
232.6305067153629,-0.3535760925722444,593024.9391858948,-3659.643071326999
251.1886431509577,-0.6200908734986018,590432.629167857,-6390.281851002384
271.227257933203,-0.8035605335320326,593581.3431233128,-8325.391857609044
292.8644564625237,-0.596325234061023,592562.1432451489,-6167.513930892125
316.227766016838,-0.6430445873046503,592931.7041631117,-6654.897375471284
341.4548873833601,-0.8695832643026745,589808.728281721,-8952.268168201652
368.6945064519574,-1.043257464727838,589021.7660126919,-10726.2573157236
398.1071705534969,-0.9235990065504949,592798.4236727786,-9556.645672260684
429.8662347082281,-0.900091698503989,591408.8893613203,-9291.539992191652
464.1588833612772,-1.050307315777249,588217.7452375795,-10784.01616988414
501.1872336272725,-1.229839978770016,589939.6439979402,-12664.85615595953
541.1695265464638,-1.37907606996956,590080.6334078014,-14205.64084236283
584.3414133735175,-1.544345297462939,589740.4820089387,-15899.66263530569
630.9573444801929,-1.472314560091593,589455.7330019014,-15150.42363401195
681.2920690579608,-1.667153661000196,589130.7339491999,-17146.96525032242
735.6422544596421,-1.727413528907824,588813.527964146,-17757.55128800495
794.3282347242806,-1.880240445368974,588106.7069469155,-19306.46797295467
857.6958985908946,-1.950822928527299,588865.5245001513,-20057.61159278784
926.1187281287937,-2.083333194563748,589428.9352467158,-21441.68981865458
1000,-2.436358078745982,588370.0300681397,-25034.03742692809
1079.775162327709,-2.545819891372033,586972.8954615904,-26098.10832062393
1165.914401179832,-2.95072304007435,590023.7200585492,-30413.01489351751
1258.925411794166,-3.077850377603129,587752.4286897164,-31603.65642459299
1359.356390878525,-3.021789781235108,591849.5512927052,-31243.22578003253
1467.799267622071,-3.433163583442795,585536.892680243,-35127.42612032949
1584.893192461114,-3.75920560486324,586632.4181242462,-38544.5791119975
1711.328304161781,-4.001424818767886,586650.9787427181,-41037.29273451386
1847.849797422293,-4.470742757743547,584457.8249629355,-45697.54713606872
1995.262314968879,-4.664457840865825,584503.8213623406,-47689.94550271929
2154.434690031882,-5.10711575528047,585567.4880096768,-52333.80969872324
2326.305067153626,-5.379268685069875,583664.6758405671,-54959.48893894745
2511.886431509582,-5.899380358079972,580506.6846723608,-59983.18515615082
2712.272579332027,-6.386575957015341,582331.9694846456,-65180.84637998243
2928.644564625237,-6.963296917558281,579650.9820362844,-70795.30447366495
3162.277660168379,-7.44312703072454,578266.9629382148,-75546.41758973914
3414.548873833601,-7.971271126567079,572966.8229831912,-80232.28837914587
3686.945064519577,-8.5047021613819,575005.3996708882,-85983.37702022499
3981.071705534977,-9.290604146662197,572109.4508111159,-93590.18276745717
4298.662347082277,-10.04817170602225,569468.3515117648,-100906.3775862592
4641.588833612773,-10.63831512341267,565371.6490528019,-106197.7969370229
5011.872336272725,-11.60765521650072,562110.0191250303,-115462.8855699412
5411.695265464637,-12.52698638490893,560256.978941287,-124482.8620184494
5843.414133735176,-13.50094575000939,555800.9205663834,-133445.6984312129
6309.57344480193,-14.76088390871374,549807.6634979483,-144863.9641347582
6812.920690579615,-15.59890490596587,545834.5158992178,-152388.4894195305
7356.422544596407,-16.69991974853263,538768.4555991611,-161637.4604438489
7943.282347242814,-18.21302644052102,530730.2865835665,-174628.9570383081
8576.958985908946,-19.38661842692007,523038.9480285611,-184053.7945863152
9261.187281287937,-20.9201837498253,509564.3470536676,-194789.4114730033
10000,-22.67019790024801,498342.9228369594,-208156.858793918
10797.7516232771,-23.73552818886178,488179.7012306768,-214657.0481133493
11659.14401179831,-25.71675734737713,474387.78669271,-228478.3282096419
12589.25411794166,-27.41043636883671,461377.0667919614,-239261.7856681177
13593.56390878527,-29.11125108300399,446184.4391392935,-248457.845283878
14677.99267622071,-31.17213896529205,426841.8239151178,-258220.9937192641
15848.93192461113,-32.98171557968211,408686.7390411661,-265218.8858321161
17113.28304161781,-34.81784995032125,390570.3242332844,-271633.9411359736
18478.49797422291,-37.42981139833625,366421.58379934,-280452.6718634149
19952.62314968879,-38.75806144713948,350083.3348889716,-281052.5749301407
21544.34690031884,-41.24988663139541,326907.0376118679,-286688.6332639849
23263.05067153629,-42.99759401746386,305184.4358704995,-284565.1319671349
25118.86431509579,-45.20833062967558,282903.5652881836,-284968.3882827808
27122.7257933203,-47.22449159744067,260186.0277009342,-281216.3830807209
29286.44564625237,-49.3780751407546,240057.428114202,-279862.9994043474
31622.77660168379,-50.87371165633846,220921.9538133673,-271589.7072791677
34145.48873833604,-53.25510485494964,200717.1112719846,-268842.7700963888
36869.45064519573,-54.31198055238966,185085.8751153497,-257687.9376597319
39810.71705534973,-55.07855282871569,193521.0317755524,-277184.7220422667
42986.62347082273,-62.38391676061006,165230.7921945696,-315841.385911465
46415.88833612777,-69.16273456286045,86352.05641485569,-226878.7667830756
50118.72336272724,-60.23849507850412,108623.1445350574,-189962.5358169338
54116.95265464637,-62.5381697116588,105500.4050448855,-202994.4543645181
58434.14133735175,-64.27302114837202,97395.84555798119,-202129.9953148735
63095.73444801936,-65.25776203999325,88002.53921631984,-190960.3026354643
68129.20690579608,-66.8356512663449,77507.42705880011,-181149.5925103438
73564.22544596414,-67.5211959872917,70957.7026700717,-171486.4551105824
79432.82347242814,-68.84253349256981,62680.21789772766,-161955.7455586384
85769.58985908945,-69.41673303199914,57075.07434002102,-151980.5284331901
92611.87281287937,-70.57368367162566,50296.50104767573,-142615.5450668467
100000,-71.41535701815849,45011.87166969363,-133868.7528414742
107977.516232771,-72.87666796247802,38821.01400088242,-126007.0748552637
116591.4401179831,-73.79559464444405,34447.18272899822,-118533.9620583293
125892.5411794167,-72.54545669564536,34907.69768347818,-111020.1211116542
135935.6390878526,-74.27047090768917,29417.85809446319,-104450.6892427118
146779.9267622069,-74.14719045402356,27032.94843870658,-95197.41910012874
158489.3192461114,-76.3005162562981,22227.83157141274,-91185.80025158121
171132.8304161779,-75.55516913569097,21934.20723908411,-85151.4417522782
184784.9797422291,-76.27418965951496,19534.82607912517,-79978.48289974197
199526.2314968881,-76.55290720648638,17836.96954923604,-74599.72581915683
215443.4690031882,-77.34489434569133,15644.00565124924,-69672.43002352843
232630.5067153626,-77.93666899434548,13928.43093334471,-65173.80364569599
251188.6431509582,-78.14019343615851,12826.8551925831,-61080.1173663819
271227.2579332027,-78.57466298755142,11562.68379706968,-57213.93034855975
292864.4564625237,-78.97480634146147,10422.18990125439,-53491.93077752891
316227.7660168378,-79.49171826312211,9274.266100824419,-49999.1278031295
341454.8873833601,-79.83223032549242,8397.271457962142,-46821.17728538541
368694.5064519577,-80.19711518262336,7547.7818940247,-43683.88296183988
398107.1705534972,-80.64210475261712,6735.659807988731,-40873.20737811283
429866.2347082276,-81.07062862954004,5993.524124002265,-38145.89897645638
464158.8833612778,-81.43038352230195,5358.460845105546,-35558.69561800188
501187.2336272722,-81.87476856587588,4797.611259189391,-33603.68406578682
541169.5265464637,-82.24373733814727,4225.410736936748,-31022.35345900351
584341.4133735176,-82.70103779655612,3692.920204421326,-28831.89556504339
630957.3444801933,-83.11898732156739,3247.148061976136,-26907.74784137475
681292.0690579616,-83.48895962397121,2857.684143438777,-25038.67510900115
735642.2544596414,-83.83662560532333,2514.456602710138,-23284.58676144076
794328.2347242818,-84.29414506666376,2162.414473159208,-21642.22108194074
857695.8985908937,-84.57355883400272,1913.231322191042,-20140.66348749069
926118.7281287938,-84.95901935425651,1652.064334140279,-18728.88558648104
1000000,-85.23731519688832,1449.118911045608,-17392.93685380026
1079775.162327709,-85.54997670797793,1257.198942268318,-16154.36407388254
1165914.401179832,-85.97198744592568,1055.280714209669,-14985.92341401289
1258925.411794167,-86.17983356737791,929.0368422013872,-13913.2653076541
1359356.390878526,-86.3530963921737,823.0173237986371,-12912.79546225234
1467799.26762207,-86.73330561289762,684.3827770687755,-11990.63709892045
1584893.192461113,-86.96868694218868,588.4064130003876,-11111.27164976435
1711328.304161781,-87.18711096491232,505.8654393354636,-10295.70114392331
1847849.797422292,-87.35267429074968,441.123277541223,-9540.387703198141
1995262.314968879,-87.55785827402151,377.2140487228598,-8844.565725033544
2154434.690031885,-87.82641499688413,311.676093795786,-8211.851487620537
2326305.067153625,-87.88379112013543,280.7902035299683,-7598.861053487735
2511886.43150958,-88.02896047779947,242.3296490181404,-7041.456255731935
2712272.579332029,-88.18301848725071,207.1320799552022,-6529.408950715868
2928644.564625236,-88.28126600178268,181.4014327113291,-6045.390828630886
3162277.66016838,-88.4209601751887,154.4391388137174,-5602.436573724835
3414548.8738336,-88.53972332251898,132.2993971660821,-5189.808102456821
3686945.064519575,-88.6733060218843,111.3773431660638,-4809.180763154611
3981071.705534974,-88.74142805291639,97.9275329987187,-4457.378766193736
4298662.347082276,-88.88224280815669,80.66820638550037,-4134.494897738899
4641588.83361278,-88.91782055987009,72.39609273623641,-3832.541211209622
5011872.33627272,-89.02506986392304,60.48304967372788,-3554.192130701679
5411695.265464636,-89.1261646926536,50.27924095925973,-3296.46206456218
5843414.133735179,-89.20166666075112,42.65788190241306,-3061.325769376109
6309573.44480193,-89.34613978079767,32.47618148591626,-2845.665328623651
6812920.690579614,-89.62737594150755,17.28499251948941,-2657.75420305305
7356422.544596417,-91.46374542443768,-63.41571904514163,-2481.758435119951
7943282.347242814,-91.34354330157721,-52.33315637310199,-2231.353003809042
8576958.985908944,-90.55253159500815,-19.6123272001194,-2033.673279940477
9261187.281287931,-90.33857773012903,-11.20333332833166,-1895.860794557348
10000000,-90.03213834861344,-0.9835112997206624,-1753.389427231105
